Circuit: * D:\Projects\Electronic-Load\SIMULATION\LTSpice\Opamp trimming.asc

Direct Newton iteration for .op point succeeded.
Semiconductor Device Operating Points:
                        --- Diodes ---
Name:    d:u2:3      d:u2:2      d:u2:6      d:u2:5      d:u2:4
Model:  u2:dbias    u2:dbias      u2:yd       u2:yu       u2:xd
Id:     -1.20e-08   -1.20e-08   -2.79e-15    2.79e-15   -9.91e-11
Vd:     -4.90e+00   -4.90e+00   -1.40e-03    1.40e-03   -9.01e+00
Req:     1.00e-03    1.00e-03    1.00e-12    1.00e-12    1.00e-11
CAP:     0.00e+00    0.00e+00    0.00e+00    0.00e+00    0.00e+00

Name:    d:u2:1
Model:    u2:xu
Id:     -1.09e-11
Vd:     -9.91e-01
Req:     1.00e-11
CAP:     0.00e+00

                        --- VDMOSFET Transistors ---
Name:        m:u2:2      m:u2:1
Model:        u2:p        u2:n
Id:         -3.40e-04    3.60e-04
Vgs:         1.40e-03    1.40e-03
Vds:        -9.01e+00    9.92e-01
Vth:         1.00e-01   -1.00e-01
Gm:          6.90e-03    7.10e-03
Gds:         0.00e+00    0.00e+00
Cgs:         0.00e+00    0.00e+00
Cgd:         0.00e+00    0.00e+00
Cbody:       0.00e+00    0.00e+00



Date: Sun May 06 21:29:30 2018
Total elapsed time: 2.511 seconds.

tnom = 27
temp = 27
method = trap
totiter = 24
traniter = 0
tranpoints = 0
accept = 0
rejected = 0
matrix size = 17
fillins = 9
solver = Normal
Matrix Compiler1: 972 bytes object code size
Matrix Compiler2: 1.66 KB object code size
